T2F6C 000:015.514   SEGGER J-Link V9.14a Log File
T2F6C 000:015.857   DLL Compiled: Jan 28 2026 17:11:52
T2F6C 000:015.876   Logging started @ 2026-04-19 09:00
T2F6C 000:015.894   Process: C:\Users\zhong\AppData\Local\Keil_v5\UV4\UV4.exe
T2F6C 000:015.940 - 15.910ms 
T2F6C 000:015.986 JLINK_SetWarnOutHandler(...)
T2F6C 000:016.011 - 0.028ms 
T2F6C 000:016.047 JLINK_OpenEx(...)
T2F6C 000:024.911   Firmware: J-Link V9 compiled May  7 2021 16:26:12
T2F6C 000:027.166   Firmware: J-Link V9 compiled May  7 2021 16:26:12
T2F6C 000:027.408   Decompressing FW timestamp took 179 us
T2F6C 000:036.471   Hardware: V9.40
T2F6C 000:036.507   S/N: 69408736
T2F6C 000:036.529   OEM: SEGGER
T2F6C 000:036.553   Feature(s): RDI, GDB, FlashDL, FlashBP, JFlash
T2F6C 000:038.772   Bootloader: (FW returned invalid version)
T2F6C 000:040.987   TELNET listener socket opened on port 19021
T2F6C 000:041.198   WEBSRV WEBSRV_Init(): Starting webserver thread(s)
T2F6C 000:041.481   WEBSRV Webserver running on local port 19080
T2F6C 000:041.787   Looking for J-Link GUI Server exe at: C:\Users\zhong\AppData\Local\Keil_v5\ARM\Segger\JLinkGUIServer.exe
T2F6C 000:042.076   Looking for J-Link GUI Server exe at: C:\Users\zhong\Desktop\C\JLink_V914a\JLinkGUIServer.exe
T2F6C 000:042.172   Forking J-Link GUI Server: C:\Users\zhong\Desktop\C\JLink_V914a\JLinkGUIServer.exe
T2F6C 000:281.877   J-Link GUI Server info: "J-Link GUI server V9.14a "
T2F6C 000:331.220 - 315.150ms returns "O.K."
T2F6C 000:331.293 JLINK_GetEmuCaps()
T2F6C 000:331.310 - 0.013ms returns 0xB9FF7BBF
T2F6C 000:331.330 JLINK_TIF_GetAvailable(...)
T2F6C 000:332.021 - 0.689ms 
T2F6C 000:332.061 JLINK_SetErrorOutHandler(...)
T2F6C 000:332.073 - 0.012ms 
T2F6C 000:332.145 JLINK_ExecCommand("ProjectFile = "C:\Users\zhong\Desktop\C\3a162dbb55c8b8d8a26ce276af877760_3522964812790883254_m\MDK-ARM\JLinkSettings.ini"", ...). 
T2F6C 000:354.734   Ref file found at: C:\Users\zhong\AppData\Local\Keil_v5\ARM\Segger\JLinkDevices.ref
T2F6C 000:354.959   REF file references invalid XML file: C:\Users\zhong\Desktop\C\JLink_V914a\JLinkDevices.xml
T2F6C 000:357.454 - 25.313ms returns 0x00
T2F6C 000:371.408 JLINK_ExecCommand("Device = STM32F407VETx", ...). 
T2F6C 000:380.195   Device "STM32F407VE" selected.
T2F6C 000:380.713 - 9.304ms returns 0x00
T2F6C 000:380.760   ERROR: Unknown command
T2F6C 000:380.785 JLINK_GetHardwareVersion()
T2F6C 000:380.801 - 0.019ms returns 94000
T2F6C 000:380.826 JLINK_GetDLLVersion()
T2F6C 000:380.848 - 0.022ms returns 91401
T2F6C 000:380.882 JLINK_GetOEMString(...)
T2F6C 000:380.901 JLINK_GetFirmwareString(...)
T2F6C 000:380.917 - 0.015ms 
T2F6C 000:395.563 JLINK_GetDLLVersion()
T2F6C 000:395.597 - 0.032ms returns 91401
T2F6C 000:395.614 JLINK_GetCompileDateTime()
T2F6C 000:395.626 - 0.011ms 
T2F6C 000:403.400 JLINK_GetFirmwareString(...)
T2F6C 000:403.429 - 0.028ms 
T2F6C 000:408.033 JLINK_GetHardwareVersion()
T2F6C 000:408.067 - 0.034ms returns 94000
T2F6C 000:414.062 JLINK_GetSN()
T2F6C 000:414.091 - 0.029ms returns 69408736
T2F6C 000:418.204 JLINK_GetOEMString(...)
T2F6C 000:426.527 JLINK_TIF_Select(JLINKARM_TIF_SWD)
T2F6C 000:429.206 - 2.679ms returns 0x00
T2F6C 000:429.245 JLINK_HasError()
T2F6C 000:429.282 JLINK_SetSpeed(5000)
T2F6C 000:429.841 - 0.562ms 
T2F6C 000:429.874 JLINK_GetId()
T2F6C 000:435.429   InitTarget() start
T2F6C 000:435.461    J-Link Script File: Executing InitTarget()
T2F6C 000:440.120   SWD selected. Executing JTAG -> SWD switching sequence.
T2F6C 000:449.821   DAP initialized successfully.
T2F6C 000:465.394   InitTarget() end - Took 23.5ms
T2F6C 000:471.472   Found SW-DP with ID 0x2BA01477
T2F6C 000:481.338   DPIDR: 0x2BA01477
T2F6C 000:485.939   CoreSight SoC-400 or earlier
T2F6C 000:493.167   Scanning AP map to find all available APs
T2F6C 000:501.301   AP[1]: Stopped AP scan as end of AP map has been reached
T2F6C 000:505.525   AP[0]: AHB-AP (IDR: 0x24770011, ADDR: 0x00000000)
T2F6C 000:511.615   Iterating through AP map to find AHB-AP to use
T2F6C 000:520.017   AP[0]: Core found
T2F6C 000:524.750   AP[0]: AHB-AP ROM base: 0xE00FF000
T2F6C 000:532.512   CPUID register: 0x410FC241. Implementer code: 0x41 (ARM)
T2F6C 000:537.938   Found Cortex-M4 r0p1, Little endian.
T2F6C 000:539.247   -- Max. mem block: 0x00010E60
T2F6C 000:540.569   CPU_ReadMem(4 bytes @ 0xE000EDF0)
T2F6C 000:541.431   CPU_ReadMem(4 bytes @ 0xE0002000)
T2F6C 000:547.183   FPUnit: 6 code (BP) slots and 2 literal slots
T2F6C 000:547.219   CPU_ReadMem(4 bytes @ 0xE000EDFC)
T2F6C 000:548.054   CPU_ReadMem(4 bytes @ 0xE0001000)
T2F6C 000:548.917   CPU_WriteMem(4 bytes @ 0xE0001000)
T2F6C 000:549.672   CPU_ReadMem(4 bytes @ 0xE000ED88)
T2F6C 000:550.417   CPU_WriteMem(4 bytes @ 0xE000ED88)
T2F6C 000:551.177   CPU_ReadMem(4 bytes @ 0xE000ED88)
T2F6C 000:552.062   CPU_WriteMem(4 bytes @ 0xE000ED88)
T2F6C 000:557.384   CoreSight components:
T2F6C 000:562.686   ROMTbl[0] @ E00FF000
T2F6C 000:562.721   CPU_ReadMem(64 bytes @ 0xE00FF000)
T2F6C 000:563.878   CPU_ReadMem(32 bytes @ 0xE000EFE0)
T2F6C 000:569.480   [0][0]: E000E000 CID B105E00D PID 000BB00C SCS-M7
T2F6C 000:569.516   CPU_ReadMem(32 bytes @ 0xE0001FE0)
T2F6C 000:574.663   [0][1]: E0001000 CID B105E00D PID 003BB002 DWT
T2F6C 000:574.698   CPU_ReadMem(32 bytes @ 0xE0002FE0)
T2F6C 000:579.786   [0][2]: E0002000 CID B105E00D PID 002BB003 FPB
T2F6C 000:579.820   CPU_ReadMem(32 bytes @ 0xE0000FE0)
T2F6C 000:587.751   [0][3]: E0000000 CID B105E00D PID 003BB001 ITM
T2F6C 000:587.785   CPU_ReadMem(32 bytes @ 0xE0040FE0)
T2F6C 000:593.119   [0][4]: E0040000 CID B105900D PID 000BB9A1 TPIU
T2F6C 000:593.154   CPU_ReadMem(32 bytes @ 0xE0041FE0)
T2F6C 000:600.390   [0][5]: E0041000 CID B105900D PID 000BB925 ETM
T2F6C 000:601.237 - 171.361ms returns 0x2BA01477
T2F6C 000:601.301 JLINK_GetDLLVersion()
T2F6C 000:601.318 - 0.016ms returns 91401
T2F6C 000:601.370 JLINK_CORE_GetFound()
T2F6C 000:601.387 - 0.016ms returns 0xE0000FF
T2F6C 000:601.412 JLINK_GetDebugInfo(0x100 = JLINKARM_ROM_TABLE_ADDR_INDEX)
T2F6C 000:601.434   Value=0xE00FF000
T2F6C 000:601.459 - 0.047ms returns 0
T2F6C 000:607.322 JLINK_GetDebugInfo(0x100 = JLINKARM_ROM_TABLE_ADDR_INDEX)
T2F6C 000:607.352   Value=0xE00FF000
T2F6C 000:607.375 - 0.053ms returns 0
T2F6C 000:607.396 JLINK_GetDebugInfo(0x101 = JLINKARM_DEBUG_INFO_ETM_ADDR_INDEX)
T2F6C 000:607.412   Value=0xE0041000
T2F6C 000:607.434 - 0.037ms returns 0
T2F6C 000:607.469 JLINK_ReadMemEx(0xE0041FD0, 0x20 Bytes, Flags = 0x02000004)
T2F6C 000:607.514   CPU_ReadMem(32 bytes @ 0xE0041FD0)
T2F6C 000:608.530   Data:  04 00 00 00 00 00 00 00 00 00 00 00 00 00 00 00 ...
T2F6C 000:608.568 - 1.098ms returns 32 (0x20)
T2F6C 000:608.594 JLINK_GetDebugInfo(0x102 = JLINKARM_DEBUG_INFO_MTB_ADDR_INDEX)
T2F6C 000:608.612   Value=0x00000000
T2F6C 000:608.645 - 0.051ms returns 0
T2F6C 000:608.668 JLINK_GetDebugInfo(0x103 = JLINKARM_DEBUG_INFO_TPIU_ADDR_INDEX)
T2F6C 000:608.685   Value=0xE0040000
T2F6C 000:608.709 - 0.041ms returns 0
T2F6C 000:608.730 JLINK_GetDebugInfo(0x104 = JLINKARM_DEBUG_INFO_ITM_ADDR_INDEX)
T2F6C 000:608.747   Value=0xE0000000
T2F6C 000:608.771 - 0.041ms returns 0
T2F6C 000:608.794 JLINK_GetDebugInfo(0x105 = JLINKARM_DEBUG_INFO_DWT_ADDR_INDEX)
T2F6C 000:608.819   Value=0xE0001000
T2F6C 000:608.864 - 0.069ms returns 0
T2F6C 000:608.886 JLINK_GetDebugInfo(0x106 = JLINKARM_DEBUG_INFO_FPB_ADDR_INDEX)
T2F6C 000:608.902   Value=0xE0002000
T2F6C 000:608.927 - 0.041ms returns 0
T2F6C 000:608.958 JLINK_GetDebugInfo(0x107 = JLINKARM_DEBUG_INFO_NVIC_ADDR_INDEX)
T2F6C 000:608.975   Value=0xE000E000
T2F6C 000:608.999 - 0.042ms returns 0
T2F6C 000:609.029 JLINK_GetDebugInfo(0x10C = JLINKARM_DEBUG_INFO_DBG_ADDR_INDEX)
T2F6C 000:609.048   Value=0xE000EDF0
T2F6C 000:609.072 - 0.043ms returns 0
T2F6C 000:609.093 JLINK_GetDebugInfo(0x01 = Unknown)
T2F6C 000:609.118   Value=0x00000001
T2F6C 000:609.144 - 0.051ms returns 0
T2F6C 000:609.168 JLINK_ReadMemU32(0xE000ED00, 0x1 Items)
T2F6C 000:609.205   CPU_ReadMem(4 bytes @ 0xE000ED00)
T2F6C 000:610.070   Data:  41 C2 0F 41
T2F6C 000:610.106   Debug reg: CPUID
T2F6C 000:610.130 - 0.962ms returns 1 (0x1)
T2F6C 000:610.159 JLINK_GetDebugInfo(0x10F = JLINKARM_DEBUG_INFO_HAS_CORTEX_M_SECURITY_EXT_INDEX)
T2F6C 000:610.179   Value=0x00000000
T2F6C 000:610.202 - 0.043ms returns 0
T2F6C 000:610.222 JLINK_HasError()
T2F6C 000:610.244 JLINK_SetResetType(JLINKARM_CM3_RESET_TYPE_NORMAL)
T2F6C 000:610.265 - 0.021ms returns JLINKARM_CM3_RESET_TYPE_NORMAL
T2F6C 000:610.307 JLINK_Reset()
T2F6C 000:610.351   JLINK_GetResetTypeDesc
T2F6C 000:610.369   - 0.016ms 
T2F6C 000:622.391   Reset type: NORMAL (https://kb.segger.com/J-Link_Reset_Strategies)
T2F6C 000:622.448   CPU is running
T2F6C 000:622.476   CPU_WriteMem(4 bytes @ 0xE000EDF0)
T2F6C 000:623.342   CPU is running
T2F6C 000:623.459   CPU_WriteMem(4 bytes @ 0xE000EDFC)
T2F6C 000:632.953   Reset: Halt core after reset via DEMCR.VC_CORERESET.
T2F6C 000:642.184   Reset: Reset device via AIRCR.SYSRESETREQ.
T2F6C 000:642.226   CPU is running
T2F6C 000:642.255   CPU_WriteMem(4 bytes @ 0xE000ED0C)
T2F6C 000:697.728   CPU_ReadMem(4 bytes @ 0xE000EDF0)
T2F6C 000:698.637   CPU_ReadMem(4 bytes @ 0xE000EDF0)
T2F6C 000:703.282   CPU_WriteMem(4 bytes @ 0xE000EDFC)
T2F6C 000:711.550   CPU_ReadMem(4 bytes @ 0xE000EDF0)
T2F6C 000:715.862   CPU_WriteMem(4 bytes @ 0xE0002000)
T2F6C 000:716.704   CPU_ReadMem(4 bytes @ 0xE000EDFC)
T2F6C 000:717.533   CPU_ReadMem(4 bytes @ 0xE0001000)
T2F6C 000:718.340 - 108.031ms 
T2F6C 000:718.481 JLINK_Halt()
T2F6C 000:718.510 - 0.028ms returns 0x00
T2F6C 000:718.533 JLINK_ReadMemU32(0xE000EDF0, 0x1 Items)
T2F6C 000:718.567   CPU_ReadMem(4 bytes @ 0xE000EDF0)
T2F6C 000:719.444   Data:  03 00 03 00
T2F6C 000:719.475   Debug reg: DHCSR
T2F6C 000:719.493 - 0.960ms returns 1 (0x1)
T2F6C 000:719.513 JLINK_WriteU32(0xE000EDF0, 0xA05F0003)
T2F6C 000:719.525   Debug reg: DHCSR
T2F6C 000:719.956   CPU_WriteMem(4 bytes @ 0xE000EDF0)
T2F6C 000:720.818 - 1.304ms returns 0 (0x00000000)
T2F6C 000:720.850 JLINK_WriteU32(0xE000EDFC, 0x01000000)
T2F6C 000:720.863   Debug reg: DEMCR
T2F6C 000:720.886   CPU_WriteMem(4 bytes @ 0xE000EDFC)
T2F6C 000:721.677 - 0.827ms returns 0 (0x00000000)
T2F6C 000:746.194 JLINK_GetHWStatus(...)
T2F6C 000:746.903 - 0.708ms returns 0
T2F6C 000:761.745 JLINK_GetNumBPUnits(Type = 0xFFFFFF00)
T2F6C 000:761.772 - 0.028ms returns 0x06
T2F6C 000:761.788 JLINK_GetNumBPUnits(Type = 0xF0)
T2F6C 000:761.801 - 0.013ms returns 0x2000
T2F6C 000:761.816 JLINK_GetNumWPUnits()
T2F6C 000:761.828 - 0.011ms returns 4
T2F6C 000:777.800 JLINK_GetSpeed()
T2F6C 000:777.828 - 0.027ms returns 4000
T2F6C 000:786.717 JLINK_ReadMemU32(0xE000E004, 0x1 Items)
T2F6C 000:786.755   CPU_ReadMem(4 bytes @ 0xE000E004)
T2F6C 000:787.546   Data:  02 00 00 00
T2F6C 000:787.566 - 0.849ms returns 1 (0x1)
T2F6C 000:787.584 JLINK_ReadMemU32(0xE000E004, 0x1 Items)
T2F6C 000:787.598   CPU_ReadMem(4 bytes @ 0xE000E004)
T2F6C 000:788.421   Data:  02 00 00 00
T2F6C 000:788.440 - 0.855ms returns 1 (0x1)
T2F6C 000:788.474 JLINK_WriteMemEx(0xE0001000, 0x0000001C Bytes, Flags = 0x02000004)
T2F6C 000:788.486   Data:  01 00 00 00 00 00 00 00 00 00 00 00 00 00 00 00 ...
T2F6C 000:788.511   CPU_WriteMem(28 bytes @ 0xE0001000)
T2F6C 000:789.425 - 0.951ms returns 0x1C
T2F6C 000:789.449 JLINK_Halt()
T2F6C 000:789.461 - 0.012ms returns 0x00
T2F6C 000:789.476 JLINK_IsHalted()
T2F6C 000:789.490 - 0.013ms returns TRUE
T2F6C 000:794.667 JLINK_WriteMem(0x20000000, 0x184 Bytes, ...)
T2F6C 000:794.685   Data:  00 BE 0A E0 0D 78 2D 06 68 40 08 24 40 00 00 D3 ...
T2F6C 000:795.060   CPU_WriteMem(388 bytes @ 0x20000000)
T2F6C 000:797.886 - 3.219ms returns 0x184
T2F6C 000:797.972 JLINK_HasError()
T2F6C 000:797.990 JLINK_WriteReg(R0, 0x08000000)
T2F6C 000:798.005 - 0.014ms returns 0
T2F6C 000:798.020 JLINK_WriteReg(R1, 0x017D7840)
T2F6C 000:798.032 - 0.012ms returns 0
T2F6C 000:798.047 JLINK_WriteReg(R2, 0x00000001)
T2F6C 000:798.059 - 0.011ms returns 0
T2F6C 000:798.074 JLINK_WriteReg(R3, 0x00000000)
T2F6C 000:798.085 - 0.011ms returns 0
T2F6C 000:798.100 JLINK_WriteReg(R4, 0x00000000)
T2F6C 000:798.112 - 0.011ms returns 0
T2F6C 000:798.131 JLINK_WriteReg(R5, 0x00000000)
T2F6C 000:798.144 - 0.013ms returns 0
T2F6C 000:798.159 JLINK_WriteReg(R6, 0x00000000)
T2F6C 000:798.171 - 0.011ms returns 0
T2F6C 000:798.186 JLINK_WriteReg(R7, 0x00000000)
T2F6C 000:798.197 - 0.011ms returns 0
T2F6C 000:798.212 JLINK_WriteReg(R8, 0x00000000)
T2F6C 000:798.223 - 0.011ms returns 0
T2F6C 000:798.238 JLINK_WriteReg(R9, 0x20000180)
T2F6C 000:798.250 - 0.011ms returns 0
T2F6C 000:798.265 JLINK_WriteReg(R10, 0x00000000)
T2F6C 000:798.277 - 0.011ms returns 0
T2F6C 000:798.292 JLINK_WriteReg(R11, 0x00000000)
T2F6C 000:798.303 - 0.011ms returns 0
T2F6C 000:798.318 JLINK_WriteReg(R12, 0x00000000)
T2F6C 000:798.330 - 0.011ms returns 0
T2F6C 000:798.344 JLINK_WriteReg(R13 (SP), 0x20001000)
T2F6C 000:798.357 - 0.012ms returns 0
T2F6C 000:798.371 JLINK_WriteReg(R14, 0x20000001)
T2F6C 000:798.384 - 0.012ms returns 0
T2F6C 000:798.412 JLINK_WriteReg(R15 (PC), 0x20000054)
T2F6C 000:798.424 - 0.025ms returns 0
T2F6C 000:798.439 JLINK_WriteReg(XPSR, 0x01000000)
T2F6C 000:798.450 - 0.011ms returns 0
T2F6C 000:798.465 JLINK_WriteReg(MSP, 0x20001000)
T2F6C 000:798.477 - 0.011ms returns 0
T2F6C 000:798.492 JLINK_WriteReg(PSP, 0x20001000)
T2F6C 000:798.503 - 0.011ms returns 0
T2F6C 000:798.518 JLINK_WriteReg(CFBP, 0x00000000)
T2F6C 000:798.530 - 0.011ms returns 0
T2F6C 000:798.545 JLINK_SetBPEx(Addr = 0x20000000, Type = 0xFFFFFFF2)
T2F6C 000:798.562   CPU_ReadMem(2 bytes @ 0x20000000)
T2F6C 000:799.426 - 0.880ms returns 0x00000001
T2F6C 000:799.446 JLINK_Go()
T2F6C 000:799.461   CPU_WriteMem(2 bytes @ 0x20000000)
T2F6C 000:800.332   CPU_ReadMem(4 bytes @ 0xE0001000)
T2F6C 000:801.171   CPU_WriteMem(4 bytes @ 0xE0002008)
T2F6C 000:801.206   CPU_WriteMem(4 bytes @ 0xE000200C)
T2F6C 000:801.224   CPU_WriteMem(4 bytes @ 0xE0002010)
T2F6C 000:801.241   CPU_WriteMem(4 bytes @ 0xE0002014)
T2F6C 000:801.258   CPU_WriteMem(4 bytes @ 0xE0002018)
T2F6C 000:801.279   CPU_WriteMem(4 bytes @ 0xE000201C)
T2F6C 000:803.079   CPU_WriteMem(4 bytes @ 0xE0001004)
T2F6C 000:813.200   Memory map 'after startup completion point' is active
T2F6C 000:813.233 - 13.786ms 
T2F6C 000:813.252 JLINK_IsHalted()
T2F6C 000:816.712   CPU_ReadMem(2 bytes @ 0x20000000)
T2F6C 000:817.541 - 4.288ms returns TRUE
T2F6C 000:817.568 JLINK_ReadReg(R15 (PC))
T2F6C 000:817.581 - 0.013ms returns 0x20000000
T2F6C 000:817.596 JLINK_ClrBPEx(BPHandle = 0x00000001)
T2F6C 000:817.609 - 0.012ms returns 0x00
T2F6C 000:817.624 JLINK_ReadReg(R0)
T2F6C 000:817.636 - 0.012ms returns 0x00000000
T2F6C 000:818.123 JLINK_HasError()
T2F6C 000:818.150 JLINK_WriteReg(R0, 0x08000000)
T2F6C 000:818.164 - 0.014ms returns 0
T2F6C 000:818.179 JLINK_WriteReg(R1, 0x00004000)
T2F6C 000:818.191 - 0.012ms returns 0
T2F6C 000:818.206 JLINK_WriteReg(R2, 0x000000FF)
T2F6C 000:818.218 - 0.011ms returns 0
T2F6C 000:818.233 JLINK_WriteReg(R3, 0x00000000)
T2F6C 000:818.245 - 0.011ms returns 0
T2F6C 000:818.260 JLINK_WriteReg(R4, 0x00000000)
T2F6C 000:818.272 - 0.012ms returns 0
T2F6C 000:818.286 JLINK_WriteReg(R5, 0x00000000)
T2F6C 000:818.298 - 0.011ms returns 0
T2F6C 000:818.313 JLINK_WriteReg(R6, 0x00000000)
T2F6C 000:818.325 - 0.011ms returns 0
T2F6C 000:818.340 JLINK_WriteReg(R7, 0x00000000)
T2F6C 000:818.351 - 0.011ms returns 0
T2F6C 000:818.366 JLINK_WriteReg(R8, 0x00000000)
T2F6C 000:818.377 - 0.011ms returns 0
T2F6C 000:818.392 JLINK_WriteReg(R9, 0x20000180)
T2F6C 000:818.404 - 0.011ms returns 0
T2F6C 000:818.419 JLINK_WriteReg(R10, 0x00000000)
T2F6C 000:818.430 - 0.011ms returns 0
T2F6C 000:818.445 JLINK_WriteReg(R11, 0x00000000)
T2F6C 000:818.457 - 0.011ms returns 0
T2F6C 000:818.471 JLINK_WriteReg(R12, 0x00000000)
T2F6C 000:818.483 - 0.011ms returns 0
T2F6C 000:818.498 JLINK_WriteReg(R13 (SP), 0x20001000)
T2F6C 000:818.510 - 0.012ms returns 0
T2F6C 000:818.525 JLINK_WriteReg(R14, 0x20000001)
T2F6C 000:818.537 - 0.011ms returns 0
T2F6C 000:818.551 JLINK_WriteReg(R15 (PC), 0x20000020)
T2F6C 000:818.563 - 0.012ms returns 0
T2F6C 000:818.578 JLINK_WriteReg(XPSR, 0x01000000)
T2F6C 000:818.643 - 0.064ms returns 0
T2F6C 000:818.661 JLINK_WriteReg(MSP, 0x20001000)
T2F6C 000:818.672 - 0.011ms returns 0
T2F6C 000:818.687 JLINK_WriteReg(PSP, 0x20001000)
T2F6C 000:818.699 - 0.011ms returns 0
T2F6C 000:818.713 JLINK_WriteReg(CFBP, 0x00000000)
T2F6C 000:818.725 - 0.011ms returns 0
T2F6C 000:818.740 JLINK_SetBPEx(Addr = 0x20000000, Type = 0xFFFFFFF2)
T2F6C 000:818.753 - 0.013ms returns 0x00000002
T2F6C 000:818.768 JLINK_Go()
T2F6C 000:818.790   CPU_ReadMem(4 bytes @ 0xE0001000)
T2F6C 000:823.097 - 4.328ms 
T2F6C 000:823.154 JLINK_IsHalted()
T2F6C 000:823.929 - 0.775ms returns FALSE
T2F6C 000:823.969 JLINK_HasError()
T2F6C 000:848.139 JLINK_IsHalted()
T2F6C 000:851.590   CPU_ReadMem(2 bytes @ 0x20000000)
T2F6C 000:852.465 - 4.325ms returns TRUE
T2F6C 000:852.518 JLINK_ReadReg(R15 (PC))
T2F6C 000:852.537 - 0.019ms returns 0x20000000
T2F6C 000:852.574 JLINK_ClrBPEx(BPHandle = 0x00000002)
T2F6C 000:852.588 - 0.013ms returns 0x00
T2F6C 000:852.607 JLINK_ReadReg(R0)
T2F6C 000:852.620 - 0.012ms returns 0x00000000
T2F6C 000:853.473 JLINK_HasError()
T2F6C 000:853.501 JLINK_WriteReg(R0, 0x08004000)
T2F6C 000:853.515 - 0.013ms returns 0
T2F6C 000:853.530 JLINK_WriteReg(R1, 0x00004000)
T2F6C 000:853.542 - 0.012ms returns 0
T2F6C 000:853.557 JLINK_WriteReg(R2, 0x000000FF)
T2F6C 000:853.569 - 0.011ms returns 0
T2F6C 000:853.584 JLINK_WriteReg(R3, 0x00000000)
T2F6C 000:853.595 - 0.011ms returns 0
T2F6C 000:853.610 JLINK_WriteReg(R4, 0x00000000)
T2F6C 000:853.622 - 0.011ms returns 0
T2F6C 000:853.636 JLINK_WriteReg(R5, 0x00000000)
T2F6C 000:853.648 - 0.012ms returns 0
T2F6C 000:853.663 JLINK_WriteReg(R6, 0x00000000)
T2F6C 000:853.675 - 0.011ms returns 0
T2F6C 000:853.689 JLINK_WriteReg(R7, 0x00000000)
T2F6C 000:853.701 - 0.011ms returns 0
T2F6C 000:853.716 JLINK_WriteReg(R8, 0x00000000)
T2F6C 000:853.728 - 0.012ms returns 0
T2F6C 000:853.743 JLINK_WriteReg(R9, 0x20000180)
T2F6C 000:853.855 - 0.111ms returns 0
T2F6C 000:853.883 JLINK_WriteReg(R10, 0x00000000)
T2F6C 000:853.900 - 0.016ms returns 0
T2F6C 000:853.920 JLINK_WriteReg(R11, 0x00000000)
T2F6C 000:853.936 - 0.016ms returns 0
T2F6C 000:853.955 JLINK_WriteReg(R12, 0x00000000)
T2F6C 000:853.970 - 0.014ms returns 0
T2F6C 000:853.988 JLINK_WriteReg(R13 (SP), 0x20001000)
T2F6C 000:854.004 - 0.016ms returns 0
T2F6C 000:854.023 JLINK_WriteReg(R14, 0x20000001)
T2F6C 000:854.039 - 0.015ms returns 0
T2F6C 000:854.058 JLINK_WriteReg(R15 (PC), 0x20000020)
T2F6C 000:854.073 - 0.015ms returns 0
T2F6C 000:854.093 JLINK_WriteReg(XPSR, 0x01000000)
T2F6C 000:854.108 - 0.015ms returns 0
T2F6C 000:854.127 JLINK_WriteReg(MSP, 0x20001000)
T2F6C 000:854.141 - 0.014ms returns 0
T2F6C 000:854.159 JLINK_WriteReg(PSP, 0x20001000)
T2F6C 000:854.173 - 0.014ms returns 0
T2F6C 000:854.191 JLINK_WriteReg(CFBP, 0x00000000)
T2F6C 000:854.206 - 0.015ms returns 0
T2F6C 000:854.225 JLINK_SetBPEx(Addr = 0x20000000, Type = 0xFFFFFFF2)
T2F6C 000:854.242 - 0.016ms returns 0x00000003
T2F6C 000:854.260 JLINK_Go()
T2F6C 000:854.286   CPU_ReadMem(4 bytes @ 0xE0001000)
T2F6C 000:858.834 - 4.572ms 
T2F6C 000:858.871 JLINK_IsHalted()
T2F6C 000:859.814 - 0.941ms returns FALSE
T2F6C 000:859.845 JLINK_HasError()
T2F6C 000:861.305 JLINK_IsHalted()
T2F6C 000:862.188 - 0.882ms returns FALSE
T2F6C 000:862.219 JLINK_HasError()
T2F6C 000:866.002 JLINK_IsHalted()
T2F6C 000:866.798 - 0.795ms returns FALSE
T2F6C 000:866.819 JLINK_HasError()
T2F6C 000:868.507 JLINK_IsHalted()
T2F6C 000:869.300 - 0.792ms returns FALSE
T2F6C 000:869.330 JLINK_HasError()
T2F6C 000:870.519 JLINK_IsHalted()
T2F6C 000:871.333 - 0.813ms returns FALSE
T2F6C 000:871.369 JLINK_HasError()
T2F6C 000:872.746 JLINK_IsHalted()
T2F6C 000:876.388   CPU_ReadMem(2 bytes @ 0x20000000)
T2F6C 000:877.194 - 4.446ms returns TRUE
T2F6C 000:877.225 JLINK_ReadReg(R15 (PC))
T2F6C 000:877.243 - 0.017ms returns 0x20000000
T2F6C 000:877.280 JLINK_ClrBPEx(BPHandle = 0x00000003)
T2F6C 000:877.298 - 0.018ms returns 0x00
T2F6C 000:877.323 JLINK_ReadReg(R0)
T2F6C 000:877.339 - 0.016ms returns 0x00000000
T2F6C 000:878.344 JLINK_HasError()
T2F6C 000:878.374 JLINK_WriteReg(R0, 0x08008000)
T2F6C 000:878.388 - 0.014ms returns 0
T2F6C 000:878.403 JLINK_WriteReg(R1, 0x00004000)
T2F6C 000:878.417 - 0.014ms returns 0
T2F6C 000:878.443 JLINK_WriteReg(R2, 0x000000FF)
T2F6C 000:878.460 - 0.017ms returns 0
T2F6C 000:878.483 JLINK_WriteReg(R3, 0x00000000)
T2F6C 000:878.501 - 0.018ms returns 0
T2F6C 000:878.522 JLINK_WriteReg(R4, 0x00000000)
T2F6C 000:878.539 - 0.016ms returns 0
T2F6C 000:878.559 JLINK_WriteReg(R5, 0x00000000)
T2F6C 000:878.574 - 0.015ms returns 0
T2F6C 000:878.589 JLINK_WriteReg(R6, 0x00000000)
T2F6C 000:878.601 - 0.012ms returns 0
T2F6C 000:878.615 JLINK_WriteReg(R7, 0x00000000)
T2F6C 000:878.627 - 0.011ms returns 0
T2F6C 000:878.644 JLINK_WriteReg(R8, 0x00000000)
T2F6C 000:878.656 - 0.011ms returns 0
T2F6C 000:878.675 JLINK_WriteReg(R9, 0x20000180)
T2F6C 000:878.689 - 0.014ms returns 0
T2F6C 000:878.704 JLINK_WriteReg(R10, 0x00000000)
T2F6C 000:878.716 - 0.012ms returns 0
T2F6C 000:878.733 JLINK_WriteReg(R11, 0x00000000)
T2F6C 000:878.748 - 0.014ms returns 0
T2F6C 000:878.777 JLINK_WriteReg(R12, 0x00000000)
T2F6C 000:878.796 - 0.018ms returns 0
T2F6C 000:878.811 JLINK_WriteReg(R13 (SP), 0x20001000)
T2F6C 000:878.823 - 0.012ms returns 0
T2F6C 000:878.838 JLINK_WriteReg(R14, 0x20000001)
T2F6C 000:878.850 - 0.012ms returns 0
T2F6C 000:878.865 JLINK_WriteReg(R15 (PC), 0x20000020)
T2F6C 000:878.877 - 0.012ms returns 0
T2F6C 000:878.892 JLINK_WriteReg(XPSR, 0x01000000)
T2F6C 000:878.912 - 0.020ms returns 0
T2F6C 000:878.927 JLINK_WriteReg(MSP, 0x20001000)
T2F6C 000:878.938 - 0.011ms returns 0
T2F6C 000:878.953 JLINK_WriteReg(PSP, 0x20001000)
T2F6C 000:878.965 - 0.011ms returns 0
T2F6C 000:878.979 JLINK_WriteReg(CFBP, 0x00000000)
T2F6C 000:878.991 - 0.011ms returns 0
T2F6C 000:879.006 JLINK_SetBPEx(Addr = 0x20000000, Type = 0xFFFFFFF2)
T2F6C 000:879.020 - 0.013ms returns 0x00000004
T2F6C 000:879.035 JLINK_Go()
T2F6C 000:879.057   CPU_ReadMem(4 bytes @ 0xE0001000)
T2F6C 000:883.448 - 4.412ms 
T2F6C 000:883.481 JLINK_IsHalted()
T2F6C 000:884.335 - 0.852ms returns FALSE
T2F6C 000:884.372 JLINK_HasError()
T2F6C 000:887.785 JLINK_IsHalted()
T2F6C 000:888.682 - 0.897ms returns FALSE
T2F6C 000:888.703 JLINK_HasError()
T2F6C 000:890.790 JLINK_IsHalted()
T2F6C 000:891.669 - 0.878ms returns FALSE
T2F6C 000:891.690 JLINK_HasError()
T2F6C 000:893.292 JLINK_IsHalted()
T2F6C 000:894.045 - 0.752ms returns FALSE
T2F6C 000:894.073 JLINK_HasError()
T2F6C 000:895.834 JLINK_IsHalted()
T2F6C 000:896.702 - 0.867ms returns FALSE
T2F6C 000:896.749 JLINK_HasError()
T2F6C 000:898.906 JLINK_IsHalted()
T2F6C 000:902.558   CPU_ReadMem(2 bytes @ 0x20000000)
T2F6C 000:903.436 - 4.529ms returns TRUE
T2F6C 000:903.478 JLINK_ReadReg(R15 (PC))
T2F6C 000:903.492 - 0.013ms returns 0x20000000
T2F6C 000:903.512 JLINK_ClrBPEx(BPHandle = 0x00000004)
T2F6C 000:903.524 - 0.012ms returns 0x00
T2F6C 000:903.541 JLINK_ReadReg(R0)
T2F6C 000:903.553 - 0.011ms returns 0x00000000
T2F6C 000:904.401 JLINK_HasError()
T2F6C 000:904.428 JLINK_WriteReg(R0, 0x0800C000)
T2F6C 000:904.442 - 0.014ms returns 0
T2F6C 000:904.457 JLINK_WriteReg(R1, 0x00004000)
T2F6C 000:904.469 - 0.012ms returns 0
T2F6C 000:904.484 JLINK_WriteReg(R2, 0x000000FF)
T2F6C 000:904.496 - 0.011ms returns 0
T2F6C 000:904.511 JLINK_WriteReg(R3, 0x00000000)
T2F6C 000:904.522 - 0.011ms returns 0
T2F6C 000:904.538 JLINK_WriteReg(R4, 0x00000000)
T2F6C 000:904.549 - 0.011ms returns 0
T2F6C 000:904.564 JLINK_WriteReg(R5, 0x00000000)
T2F6C 000:904.576 - 0.011ms returns 0
T2F6C 000:904.591 JLINK_WriteReg(R6, 0x00000000)
T2F6C 000:904.602 - 0.011ms returns 0
T2F6C 000:904.617 JLINK_WriteReg(R7, 0x00000000)
T2F6C 000:904.629 - 0.011ms returns 0
T2F6C 000:904.643 JLINK_WriteReg(R8, 0x00000000)
T2F6C 000:904.655 - 0.011ms returns 0
T2F6C 000:904.670 JLINK_WriteReg(R9, 0x20000180)
T2F6C 000:904.682 - 0.011ms returns 0
T2F6C 000:904.696 JLINK_WriteReg(R10, 0x00000000)
T2F6C 000:904.708 - 0.012ms returns 0
T2F6C 000:904.727 JLINK_WriteReg(R11, 0x00000000)
T2F6C 000:904.741 - 0.014ms returns 0
T2F6C 000:904.756 JLINK_WriteReg(R12, 0x00000000)
T2F6C 000:904.768 - 0.011ms returns 0
T2F6C 000:904.784 JLINK_WriteReg(R13 (SP), 0x20001000)
T2F6C 000:904.796 - 0.012ms returns 0
T2F6C 000:904.810 JLINK_WriteReg(R14, 0x20000001)
T2F6C 000:904.822 - 0.011ms returns 0
T2F6C 000:904.837 JLINK_WriteReg(R15 (PC), 0x20000020)
T2F6C 000:904.849 - 0.011ms returns 0
T2F6C 000:904.863 JLINK_WriteReg(XPSR, 0x01000000)
T2F6C 000:904.876 - 0.012ms returns 0
T2F6C 000:904.890 JLINK_WriteReg(MSP, 0x20001000)
T2F6C 000:904.902 - 0.011ms returns 0
T2F6C 000:904.916 JLINK_WriteReg(PSP, 0x20001000)
T2F6C 000:904.928 - 0.011ms returns 0
T2F6C 000:904.943 JLINK_WriteReg(CFBP, 0x00000000)
T2F6C 000:904.954 - 0.011ms returns 0
T2F6C 000:904.970 JLINK_SetBPEx(Addr = 0x20000000, Type = 0xFFFFFFF2)
T2F6C 000:904.982 - 0.013ms returns 0x00000005
T2F6C 000:904.997 JLINK_Go()
T2F6C 000:905.018   CPU_ReadMem(4 bytes @ 0xE0001000)
T2F6C 000:909.159 - 4.160ms 
T2F6C 000:909.185 JLINK_IsHalted()
T2F6C 000:909.970 - 0.783ms returns FALSE
T2F6C 000:910.008 JLINK_HasError()
T2F6C 000:911.194 JLINK_IsHalted()
T2F6C 000:912.103 - 0.907ms returns FALSE
T2F6C 000:912.133 JLINK_HasError()
T2F6C 000:916.388 JLINK_IsHalted()
T2F6C 000:917.177 - 0.788ms returns FALSE
T2F6C 000:917.208 JLINK_HasError()
T2F6C 000:918.918 JLINK_IsHalted()
T2F6C 000:919.829 - 0.911ms returns FALSE
T2F6C 000:919.864 JLINK_HasError()
T2F6C 000:921.979 JLINK_IsHalted()
T2F6C 000:922.809 - 0.829ms returns FALSE
T2F6C 000:922.838 JLINK_HasError()
T2F6C 000:924.553 JLINK_IsHalted()
T2F6C 000:928.123   CPU_ReadMem(2 bytes @ 0x20000000)
T2F6C 000:928.947 - 4.393ms returns TRUE
T2F6C 000:928.978 JLINK_ReadReg(R15 (PC))
T2F6C 000:928.992 - 0.013ms returns 0x20000000
T2F6C 000:929.007 JLINK_ClrBPEx(BPHandle = 0x00000005)
T2F6C 000:929.019 - 0.012ms returns 0x00
T2F6C 000:929.034 JLINK_ReadReg(R0)
T2F6C 000:929.046 - 0.011ms returns 0x00000000
T2F6C 000:931.090 JLINK_HasError()
T2F6C 000:931.125 JLINK_WriteReg(R0, 0x08010000)
T2F6C 000:931.151 - 0.025ms returns 0
T2F6C 000:931.174 JLINK_WriteReg(R1, 0x00010000)
T2F6C 000:931.200 - 0.025ms returns 0
T2F6C 000:931.221 JLINK_WriteReg(R2, 0x000000FF)
T2F6C 000:931.236 - 0.015ms returns 0
T2F6C 000:931.255 JLINK_WriteReg(R3, 0x00000000)
T2F6C 000:931.271 - 0.015ms returns 0
T2F6C 000:931.290 JLINK_WriteReg(R4, 0x00000000)
T2F6C 000:931.310 - 0.020ms returns 0
T2F6C 000:931.337 JLINK_WriteReg(R5, 0x00000000)
T2F6C 000:931.355 - 0.018ms returns 0
T2F6C 000:931.375 JLINK_WriteReg(R6, 0x00000000)
T2F6C 000:931.392 - 0.017ms returns 0
T2F6C 000:931.412 JLINK_WriteReg(R7, 0x00000000)
T2F6C 000:931.428 - 0.016ms returns 0
T2F6C 000:931.449 JLINK_WriteReg(R8, 0x00000000)
T2F6C 000:931.474 - 0.025ms returns 0
T2F6C 000:931.497 JLINK_WriteReg(R9, 0x20000180)
T2F6C 000:931.513 - 0.016ms returns 0
T2F6C 000:931.533 JLINK_WriteReg(R10, 0x00000000)
T2F6C 000:931.550 - 0.017ms returns 0
T2F6C 000:931.579 JLINK_WriteReg(R11, 0x00000000)
T2F6C 000:931.598 - 0.018ms returns 0
T2F6C 000:931.618 JLINK_WriteReg(R12, 0x00000000)
T2F6C 000:931.634 - 0.016ms returns 0
T2F6C 000:931.654 JLINK_WriteReg(R13 (SP), 0x20001000)
T2F6C 000:931.670 - 0.016ms returns 0
T2F6C 000:931.691 JLINK_WriteReg(R14, 0x20000001)
T2F6C 000:931.707 - 0.016ms returns 0
T2F6C 000:931.727 JLINK_WriteReg(R15 (PC), 0x20000020)
T2F6C 000:931.744 - 0.016ms returns 0
T2F6C 000:931.764 JLINK_WriteReg(XPSR, 0x01000000)
T2F6C 000:931.781 - 0.016ms returns 0
T2F6C 000:931.801 JLINK_WriteReg(MSP, 0x20001000)
T2F6C 000:931.817 - 0.016ms returns 0
T2F6C 000:931.837 JLINK_WriteReg(PSP, 0x20001000)
T2F6C 000:931.864 - 0.025ms returns 0
T2F6C 000:931.886 JLINK_WriteReg(CFBP, 0x00000000)
T2F6C 000:931.909 - 0.022ms returns 0
T2F6C 000:931.941 JLINK_SetBPEx(Addr = 0x20000000, Type = 0xFFFFFFF2)
T2F6C 000:931.969 - 0.027ms returns 0x00000006
T2F6C 000:931.990 JLINK_Go()
T2F6C 000:932.020   CPU_ReadMem(4 bytes @ 0xE0001000)
T2F6C 000:936.431 - 4.440ms 
T2F6C 000:936.469 JLINK_IsHalted()
T2F6C 000:937.288 - 0.818ms returns FALSE
T2F6C 000:937.306 JLINK_HasError()
T2F6C 000:938.675 JLINK_IsHalted()
T2F6C 000:939.423 - 0.747ms returns FALSE
T2F6C 000:939.441 JLINK_HasError()
T2F6C 000:941.190 JLINK_IsHalted()
T2F6C 000:942.053 - 0.862ms returns FALSE
T2F6C 000:942.080 JLINK_HasError()
T2F6C 000:943.700 JLINK_IsHalted()
T2F6C 000:944.544 - 0.843ms returns FALSE
T2F6C 000:944.567 JLINK_HasError()
T2F6C 000:947.954 JLINK_IsHalted()
T2F6C 000:948.829 - 0.874ms returns FALSE
T2F6C 000:948.874 JLINK_HasError()
T2F6C 000:950.433 JLINK_IsHalted()
T2F6C 000:951.293 - 0.860ms returns FALSE
T2F6C 000:951.312 JLINK_HasError()
T2F6C 000:952.481 JLINK_IsHalted()
T2F6C 000:953.286 - 0.804ms returns FALSE
T2F6C 000:953.305 JLINK_HasError()
T2F6C 000:954.485 JLINK_IsHalted()
T2F6C 000:955.285 - 0.799ms returns FALSE
T2F6C 000:955.315 JLINK_HasError()
T2F6C 000:956.500 JLINK_IsHalted()
T2F6C 000:957.324 - 0.823ms returns FALSE
T2F6C 000:957.360 JLINK_HasError()
T2F6C 000:960.010 JLINK_IsHalted()
T2F6C 000:960.829 - 0.818ms returns FALSE
T2F6C 000:960.866 JLINK_HasError()
T2F6C 000:962.074 JLINK_IsHalted()
T2F6C 000:962.958 - 0.883ms returns FALSE
T2F6C 000:963.000 JLINK_HasError()
T2F6C 000:967.780 JLINK_IsHalted()
T2F6C 000:968.688 - 0.908ms returns FALSE
T2F6C 000:968.716 JLINK_HasError()
T2F6C 000:970.290 JLINK_IsHalted()
T2F6C 000:971.064 - 0.773ms returns FALSE
T2F6C 000:971.090 JLINK_HasError()
T2F6C 000:972.302 JLINK_IsHalted()
T2F6C 000:973.166 - 0.863ms returns FALSE
T2F6C 000:973.202 JLINK_HasError()
T2F6C 000:974.842 JLINK_IsHalted()
T2F6C 000:975.670 - 0.827ms returns FALSE
T2F6C 000:975.699 JLINK_HasError()
T2F6C 000:977.837 JLINK_IsHalted()
T2F6C 000:978.694 - 0.857ms returns FALSE
T2F6C 000:978.731 JLINK_HasError()
T2F6C 000:980.490 JLINK_IsHalted()
T2F6C 000:981.294 - 0.803ms returns FALSE
T2F6C 000:981.322 JLINK_HasError()
T2F6C 000:982.613 JLINK_IsHalted()
T2F6C 000:983.426 - 0.813ms returns FALSE
T2F6C 000:983.444 JLINK_HasError()
T2F6C 000:984.610 JLINK_IsHalted()
T2F6C 000:985.425 - 0.814ms returns FALSE
T2F6C 000:985.442 JLINK_HasError()
T2F6C 000:986.619 JLINK_IsHalted()
T2F6C 000:987.441 - 0.822ms returns FALSE
T2F6C 000:987.471 JLINK_HasError()
T2F6C 000:988.619 JLINK_IsHalted()
T2F6C 000:989.425 - 0.805ms returns FALSE
T2F6C 000:989.444 JLINK_HasError()
T2F6C 000:990.675 JLINK_IsHalted()
T2F6C 000:991.542 - 0.866ms returns FALSE
T2F6C 000:991.566 JLINK_HasError()
T2F6C 000:993.180 JLINK_IsHalted()
T2F6C 000:996.749   CPU_ReadMem(2 bytes @ 0x20000000)
T2F6C 000:997.543 - 4.362ms returns TRUE
T2F6C 000:997.564 JLINK_ReadReg(R15 (PC))
T2F6C 000:997.577 - 0.013ms returns 0x20000000
T2F6C 000:997.593 JLINK_ClrBPEx(BPHandle = 0x00000006)
T2F6C 000:997.605 - 0.012ms returns 0x00
T2F6C 000:997.620 JLINK_ReadReg(R0)
T2F6C 000:997.632 - 0.012ms returns 0x00000000
T2F6C 000:998.241 JLINK_HasError()
T2F6C 000:998.268 JLINK_WriteReg(R0, 0x00000001)
T2F6C 000:998.281 - 0.013ms returns 0
T2F6C 000:998.296 JLINK_WriteReg(R1, 0x00010000)
T2F6C 000:998.308 - 0.012ms returns 0
T2F6C 000:998.323 JLINK_WriteReg(R2, 0x000000FF)
T2F6C 000:998.335 - 0.011ms returns 0
T2F6C 000:998.350 JLINK_WriteReg(R3, 0x00000000)
T2F6C 000:998.362 - 0.012ms returns 0
T2F6C 000:998.377 JLINK_WriteReg(R4, 0x00000000)
T2F6C 000:998.389 - 0.011ms returns 0
T2F6C 000:998.403 JLINK_WriteReg(R5, 0x00000000)
T2F6C 000:998.415 - 0.011ms returns 0
T2F6C 000:998.429 JLINK_WriteReg(R6, 0x00000000)
T2F6C 000:998.441 - 0.011ms returns 0
T2F6C 000:998.456 JLINK_WriteReg(R7, 0x00000000)
T2F6C 000:998.467 - 0.011ms returns 0
T2F6C 000:998.482 JLINK_WriteReg(R8, 0x00000000)
T2F6C 000:998.494 - 0.011ms returns 0
T2F6C 000:998.509 JLINK_WriteReg(R9, 0x20000180)
T2F6C 000:998.520 - 0.011ms returns 0
T2F6C 000:998.535 JLINK_WriteReg(R10, 0x00000000)
T2F6C 000:998.547 - 0.011ms returns 0
T2F6C 000:998.561 JLINK_WriteReg(R11, 0x00000000)
T2F6C 000:998.573 - 0.011ms returns 0
T2F6C 000:998.588 JLINK_WriteReg(R12, 0x00000000)
T2F6C 000:998.658 - 0.070ms returns 0
T2F6C 000:998.677 JLINK_WriteReg(R13 (SP), 0x20001000)
T2F6C 000:998.689 - 0.012ms returns 0
T2F6C 000:998.703 JLINK_WriteReg(R14, 0x20000001)
T2F6C 000:998.715 - 0.011ms returns 0
T2F6C 000:998.730 JLINK_WriteReg(R15 (PC), 0x20000086)
T2F6C 000:998.742 - 0.011ms returns 0
T2F6C 000:998.757 JLINK_WriteReg(XPSR, 0x01000000)
T2F6C 000:998.768 - 0.012ms returns 0
T2F6C 000:998.783 JLINK_WriteReg(MSP, 0x20001000)
T2F6C 000:998.795 - 0.011ms returns 0
T2F6C 000:998.810 JLINK_WriteReg(PSP, 0x20001000)
T2F6C 000:998.821 - 0.011ms returns 0
T2F6C 000:998.836 JLINK_WriteReg(CFBP, 0x00000000)
T2F6C 000:998.847 - 0.011ms returns 0
T2F6C 000:998.863 JLINK_SetBPEx(Addr = 0x20000000, Type = 0xFFFFFFF2)
T2F6C 000:998.876 - 0.013ms returns 0x00000007
T2F6C 000:998.891 JLINK_Go()
T2F6C 000:998.913   CPU_ReadMem(4 bytes @ 0xE0001000)
T2F6C 001:003.154 - 4.262ms 
T2F6C 001:003.182 JLINK_IsHalted()
T2F6C 001:006.596   CPU_ReadMem(2 bytes @ 0x20000000)
T2F6C 001:007.445 - 4.262ms returns TRUE
T2F6C 001:007.488 JLINK_ReadReg(R15 (PC))
T2F6C 001:007.502 - 0.013ms returns 0x20000000
T2F6C 001:007.522 JLINK_ClrBPEx(BPHandle = 0x00000007)
T2F6C 001:007.534 - 0.012ms returns 0x00
T2F6C 001:007.554 JLINK_ReadReg(R0)
T2F6C 001:007.566 - 0.012ms returns 0x00000000
T2F6C 001:073.110 JLINK_WriteMem(0x20000000, 0x184 Bytes, ...)
T2F6C 001:073.134   Data:  00 BE 0A E0 0D 78 2D 06 68 40 08 24 40 00 00 D3 ...
T2F6C 001:073.167   CPU_WriteMem(388 bytes @ 0x20000000)
T2F6C 001:076.070 - 2.959ms returns 0x184
T2F6C 001:076.151 JLINK_HasError()
T2F6C 001:076.178 JLINK_WriteReg(R0, 0x08000000)
T2F6C 001:076.196 - 0.018ms returns 0
T2F6C 001:076.217 JLINK_WriteReg(R1, 0x017D7840)
T2F6C 001:076.234 - 0.017ms returns 0
T2F6C 001:076.255 JLINK_WriteReg(R2, 0x00000002)
T2F6C 001:076.271 - 0.015ms returns 0
T2F6C 001:076.292 JLINK_WriteReg(R3, 0x00000000)
T2F6C 001:076.310 - 0.018ms returns 0
T2F6C 001:076.330 JLINK_WriteReg(R4, 0x00000000)
T2F6C 001:076.348 - 0.018ms returns 0
T2F6C 001:076.369 JLINK_WriteReg(R5, 0x00000000)
T2F6C 001:076.385 - 0.016ms returns 0
T2F6C 001:076.407 JLINK_WriteReg(R6, 0x00000000)
T2F6C 001:076.455 - 0.046ms returns 0
T2F6C 001:076.495 JLINK_WriteReg(R7, 0x00000000)
T2F6C 001:076.517 - 0.022ms returns 0
T2F6C 001:076.546 JLINK_WriteReg(R8, 0x00000000)
T2F6C 001:076.565 - 0.019ms returns 0
T2F6C 001:076.592 JLINK_WriteReg(R9, 0x20000180)
T2F6C 001:076.627 - 0.034ms returns 0
T2F6C 001:076.656 JLINK_WriteReg(R10, 0x00000000)
T2F6C 001:076.673 - 0.017ms returns 0
T2F6C 001:076.694 JLINK_WriteReg(R11, 0x00000000)
T2F6C 001:076.714 - 0.019ms returns 0
T2F6C 001:076.741 JLINK_WriteReg(R12, 0x00000000)
T2F6C 001:076.758 - 0.016ms returns 0
T2F6C 001:076.778 JLINK_WriteReg(R13 (SP), 0x20001000)
T2F6C 001:076.794 - 0.017ms returns 0
T2F6C 001:076.814 JLINK_WriteReg(R14, 0x20000001)
T2F6C 001:076.831 - 0.016ms returns 0
T2F6C 001:076.850 JLINK_WriteReg(R15 (PC), 0x20000054)
T2F6C 001:076.866 - 0.016ms returns 0
T2F6C 001:076.886 JLINK_WriteReg(XPSR, 0x01000000)
T2F6C 001:076.902 - 0.016ms returns 0
T2F6C 001:076.928 JLINK_WriteReg(MSP, 0x20001000)
T2F6C 001:076.950 - 0.022ms returns 0
T2F6C 001:076.970 JLINK_WriteReg(PSP, 0x20001000)
T2F6C 001:076.986 - 0.016ms returns 0
T2F6C 001:077.006 JLINK_WriteReg(CFBP, 0x00000000)
T2F6C 001:077.022 - 0.016ms returns 0
T2F6C 001:077.043 JLINK_SetBPEx(Addr = 0x20000000, Type = 0xFFFFFFF2)
T2F6C 001:077.069   CPU_ReadMem(2 bytes @ 0x20000000)
T2F6C 001:078.043 - 0.999ms returns 0x00000008
T2F6C 001:078.086 JLINK_Go()
T2F6C 001:078.111   CPU_WriteMem(2 bytes @ 0x20000000)
T2F6C 001:078.969   CPU_ReadMem(4 bytes @ 0xE0001000)
T2F6C 001:083.463 - 5.376ms 
T2F6C 001:083.513 JLINK_IsHalted()
T2F6C 001:086.992   CPU_ReadMem(2 bytes @ 0x20000000)
T2F6C 001:087.808 - 4.294ms returns TRUE
T2F6C 001:087.841 JLINK_ReadReg(R15 (PC))
T2F6C 001:087.859 - 0.017ms returns 0x20000000
T2F6C 001:087.883 JLINK_ClrBPEx(BPHandle = 0x00000008)
T2F6C 001:087.900 - 0.016ms returns 0x00
T2F6C 001:087.924 JLINK_ReadReg(R0)
T2F6C 001:087.949 - 0.025ms returns 0x00000000
T2F6C 001:088.507 JLINK_WriteMem(0x20000184, 0x27C Bytes, ...)
T2F6C 001:088.544   Data:  78 EF 00 20 5D 02 00 08 09 70 00 08 F5 65 00 08 ...
T2F6C 001:088.573   CPU_WriteMem(636 bytes @ 0x20000184)
T2F6C 001:092.622 - 4.115ms returns 0x27C
T2F6C 001:092.658 JLINK_WriteMem(0x20000400, 0x184 Bytes, ...)
T2F6C 001:092.674   Data:  05 4A 06 4B 70 47 00 00 19 8C 00 08 89 01 00 08 ...
T2F6C 001:092.701   CPU_WriteMem(388 bytes @ 0x20000400)
T2F6C 001:095.548 - 2.889ms returns 0x184
T2F6C 001:095.580 JLINK_HasError()
T2F6C 001:095.600 JLINK_WriteReg(R0, 0x08000000)
T2F6C 001:095.616 - 0.016ms returns 0
T2F6C 001:095.635 JLINK_WriteReg(R1, 0x00000400)
T2F6C 001:095.650 - 0.016ms returns 0
T2F6C 001:095.671 JLINK_WriteReg(R2, 0x20000184)
T2F6C 001:095.685 - 0.014ms returns 0
T2F6C 001:095.704 JLINK_WriteReg(R3, 0x00000000)
T2F6C 001:095.718 - 0.014ms returns 0
T2F6C 001:095.736 JLINK_WriteReg(R4, 0x00000000)
T2F6C 001:095.750 - 0.014ms returns 0
T2F6C 001:095.768 JLINK_WriteReg(R5, 0x00000000)
T2F6C 001:095.784 - 0.016ms returns 0
T2F6C 001:095.801 JLINK_WriteReg(R6, 0x00000000)
T2F6C 001:095.815 - 0.013ms returns 0
T2F6C 001:095.838 JLINK_WriteReg(R7, 0x00000000)
T2F6C 001:095.850 - 0.012ms returns 0
T2F6C 001:095.865 JLINK_WriteReg(R8, 0x00000000)
T2F6C 001:095.880 - 0.014ms returns 0
T2F6C 001:095.900 JLINK_WriteReg(R9, 0x20000180)
T2F6C 001:095.915 - 0.015ms returns 0
T2F6C 001:095.934 JLINK_WriteReg(R10, 0x00000000)
T2F6C 001:095.951 - 0.016ms returns 0
T2F6C 001:095.966 JLINK_WriteReg(R11, 0x00000000)
T2F6C 001:095.982 - 0.015ms returns 0
T2F6C 001:096.002 JLINK_WriteReg(R12, 0x00000000)
T2F6C 001:096.017 - 0.014ms returns 0
T2F6C 001:096.106 JLINK_WriteReg(R13 (SP), 0x20001000)
T2F6C 001:096.124 - 0.018ms returns 0
T2F6C 001:096.143 JLINK_WriteReg(R14, 0x20000001)
T2F6C 001:096.159 - 0.016ms returns 0
T2F6C 001:096.179 JLINK_WriteReg(R15 (PC), 0x2000010C)
T2F6C 001:096.196 - 0.016ms returns 0
T2F6C 001:096.216 JLINK_WriteReg(XPSR, 0x01000000)
T2F6C 001:096.233 - 0.016ms returns 0
T2F6C 001:096.253 JLINK_WriteReg(MSP, 0x20001000)
T2F6C 001:096.269 - 0.016ms returns 0
T2F6C 001:096.287 JLINK_WriteReg(PSP, 0x20001000)
T2F6C 001:096.302 - 0.014ms returns 0
T2F6C 001:096.320 JLINK_WriteReg(CFBP, 0x00000000)
T2F6C 001:096.337 - 0.016ms returns 0
T2F6C 001:096.357 JLINK_SetBPEx(Addr = 0x20000000, Type = 0xFFFFFFF2)
T2F6C 001:096.374 - 0.017ms returns 0x00000009
T2F6C 001:096.394 JLINK_Go()
T2F6C 001:096.422   CPU_ReadMem(4 bytes @ 0xE0001000)
T2F6C 001:100.822 - 4.426ms 
T2F6C 001:100.857 JLINK_IsHalted()
T2F6C 001:101.725 - 0.867ms returns FALSE
T2F6C 001:101.762 JLINK_HasError()
T2F6C 001:110.969 JLINK_IsHalted()
T2F6C 001:114.626   CPU_ReadMem(2 bytes @ 0x20000000)
T2F6C 001:115.446 - 4.476ms returns TRUE
T2F6C 001:115.498 JLINK_ReadReg(R15 (PC))
T2F6C 001:115.517 - 0.018ms returns 0x20000000
T2F6C 001:115.543 JLINK_ClrBPEx(BPHandle = 0x00000009)
T2F6C 001:115.560 - 0.016ms returns 0x00
T2F6C 001:115.584 JLINK_ReadReg(R0)
T2F6C 001:115.602 - 0.017ms returns 0x00000000
T2F6C 001:117.233 JLINK_WriteMem(0x20000184, 0x27C Bytes, ...)
T2F6C 001:117.264   Data:  06 08 AB FB 02 7C 06 FB 02 CC 0B FB 03 CC C0 1B ...
T2F6C 001:117.297   CPU_WriteMem(636 bytes @ 0x20000184)
T2F6C 001:121.310 - 4.077ms returns 0x27C
T2F6C 001:121.341 JLINK_WriteMem(0x20000400, 0x184 Bytes, ...)
T2F6C 001:121.355   Data:  10 B5 04 46 00 F0 06 F8 04 60 10 BD 00 48 70 47 ...
T2F6C 001:121.379   CPU_WriteMem(388 bytes @ 0x20000400)
T2F6C 001:124.089 - 2.747ms returns 0x184
T2F6C 001:124.115 JLINK_HasError()
T2F6C 001:124.131 JLINK_WriteReg(R0, 0x08000400)
T2F6C 001:124.145 - 0.013ms returns 0
T2F6C 001:124.160 JLINK_WriteReg(R1, 0x00000400)
T2F6C 001:124.171 - 0.011ms returns 0
T2F6C 001:124.186 JLINK_WriteReg(R2, 0x20000184)
T2F6C 001:124.199 - 0.012ms returns 0
T2F6C 001:124.214 JLINK_WriteReg(R3, 0x00000000)
T2F6C 001:124.225 - 0.011ms returns 0
T2F6C 001:124.240 JLINK_WriteReg(R4, 0x00000000)
T2F6C 001:124.256 - 0.016ms returns 0
T2F6C 001:124.274 JLINK_WriteReg(R5, 0x00000000)
T2F6C 001:124.285 - 0.011ms returns 0
T2F6C 001:124.301 JLINK_WriteReg(R6, 0x00000000)
T2F6C 001:124.313 - 0.011ms returns 0
T2F6C 001:124.327 JLINK_WriteReg(R7, 0x00000000)
T2F6C 001:124.339 - 0.011ms returns 0
T2F6C 001:124.354 JLINK_WriteReg(R8, 0x00000000)
T2F6C 001:124.365 - 0.011ms returns 0
T2F6C 001:124.380 JLINK_WriteReg(R9, 0x20000180)
T2F6C 001:124.391 - 0.011ms returns 0
T2F6C 001:124.406 JLINK_WriteReg(R10, 0x00000000)
T2F6C 001:124.418 - 0.011ms returns 0
T2F6C 001:124.432 JLINK_WriteReg(R11, 0x00000000)
T2F6C 001:124.444 - 0.011ms returns 0
T2F6C 001:124.459 JLINK_WriteReg(R12, 0x00000000)
T2F6C 001:124.471 - 0.011ms returns 0
T2F6C 001:124.485 JLINK_WriteReg(R13 (SP), 0x20001000)
T2F6C 001:124.498 - 0.012ms returns 0
T2F6C 001:124.512 JLINK_WriteReg(R14, 0x20000001)
T2F6C 001:124.524 - 0.011ms returns 0
T2F6C 001:124.539 JLINK_WriteReg(R15 (PC), 0x2000010C)
T2F6C 001:124.551 - 0.012ms returns 0
T2F6C 001:124.566 JLINK_WriteReg(XPSR, 0x01000000)
T2F6C 001:124.578 - 0.012ms returns 0
T2F6C 001:124.596 JLINK_WriteReg(MSP, 0x20001000)
T2F6C 001:124.612 - 0.016ms returns 0
T2F6C 001:124.637 JLINK_WriteReg(PSP, 0x20001000)
T2F6C 001:124.653 - 0.016ms returns 0
T2F6C 001:124.673 JLINK_WriteReg(CFBP, 0x00000000)
T2F6C 001:124.689 - 0.016ms returns 0
T2F6C 001:124.710 JLINK_SetBPEx(Addr = 0x20000000, Type = 0xFFFFFFF2)
T2F6C 001:124.727 - 0.018ms returns 0x0000000A
T2F6C 001:124.748 JLINK_Go()
T2F6C 001:124.775   CPU_ReadMem(4 bytes @ 0xE0001000)
T2F6C 001:129.058 - 4.309ms 
T2F6C 001:129.095 JLINK_IsHalted()
T2F6C 001:129.952 - 0.856ms returns FALSE
T2F6C 001:129.984 JLINK_HasError()
T2F6C 001:136.843 JLINK_IsHalted()
T2F6C 001:140.345   CPU_ReadMem(2 bytes @ 0x20000000)
T2F6C 001:141.168 - 4.324ms returns TRUE
T2F6C 001:141.206 JLINK_ReadReg(R15 (PC))
T2F6C 001:141.220 - 0.014ms returns 0x20000000
T2F6C 001:141.240 JLINK_ClrBPEx(BPHandle = 0x0000000A)
T2F6C 001:141.252 - 0.012ms returns 0x00
T2F6C 001:141.271 JLINK_ReadReg(R0)
T2F6C 001:141.283 - 0.011ms returns 0x00000000
T2F6C 001:142.117 JLINK_WriteMem(0x20000184, 0x27C Bytes, ...)
T2F6C 001:142.139   Data:  00 F0 EA FD 44 F6 D3 51 C1 F2 62 01 A0 FB 01 10 ...
T2F6C 001:142.165   CPU_WriteMem(636 bytes @ 0x20000184)
T2F6C 001:146.140 - 4.023ms returns 0x27C
T2F6C 001:146.185 JLINK_WriteMem(0x20000400, 0x184 Bytes, ...)
T2F6C 001:146.205   Data:  C2 F2 00 00 00 78 C8 B3 FF E7 05 98 00 68 80 68 ...
T2F6C 001:146.235   CPU_WriteMem(388 bytes @ 0x20000400)
T2F6C 001:149.039 - 2.854ms returns 0x184
T2F6C 001:149.072 JLINK_HasError()
T2F6C 001:149.091 JLINK_WriteReg(R0, 0x08000800)
T2F6C 001:149.149 - 0.057ms returns 0
T2F6C 001:149.171 JLINK_WriteReg(R1, 0x00000400)
T2F6C 001:149.187 - 0.016ms returns 0
T2F6C 001:149.208 JLINK_WriteReg(R2, 0x20000184)
T2F6C 001:149.235 - 0.026ms returns 0
T2F6C 001:149.257 JLINK_WriteReg(R3, 0x00000000)
T2F6C 001:149.274 - 0.017ms returns 0
T2F6C 001:149.294 JLINK_WriteReg(R4, 0x00000000)
T2F6C 001:149.306 - 0.011ms returns 0
T2F6C 001:149.321 JLINK_WriteReg(R5, 0x00000000)
T2F6C 001:149.333 - 0.011ms returns 0
T2F6C 001:149.348 JLINK_WriteReg(R6, 0x00000000)
T2F6C 001:149.359 - 0.011ms returns 0
T2F6C 001:149.374 JLINK_WriteReg(R7, 0x00000000)
T2F6C 001:149.386 - 0.011ms returns 0
T2F6C 001:149.400 JLINK_WriteReg(R8, 0x00000000)
T2F6C 001:149.412 - 0.011ms returns 0
T2F6C 001:149.427 JLINK_WriteReg(R9, 0x20000180)
T2F6C 001:149.439 - 0.011ms returns 0
T2F6C 001:149.454 JLINK_WriteReg(R10, 0x00000000)
T2F6C 001:149.466 - 0.011ms returns 0
T2F6C 001:149.481 JLINK_WriteReg(R11, 0x00000000)
T2F6C 001:149.492 - 0.011ms returns 0
T2F6C 001:149.507 JLINK_WriteReg(R12, 0x00000000)
T2F6C 001:149.519 - 0.011ms returns 0
T2F6C 001:149.534 JLINK_WriteReg(R13 (SP), 0x20001000)
T2F6C 001:149.546 - 0.012ms returns 0
T2F6C 001:149.561 JLINK_WriteReg(R14, 0x20000001)
T2F6C 001:149.573 - 0.011ms returns 0
T2F6C 001:149.587 JLINK_WriteReg(R15 (PC), 0x2000010C)
T2F6C 001:149.599 - 0.012ms returns 0
T2F6C 001:149.623 JLINK_WriteReg(XPSR, 0x01000000)
T2F6C 001:149.635 - 0.012ms returns 0
T2F6C 001:149.650 JLINK_WriteReg(MSP, 0x20001000)
T2F6C 001:149.661 - 0.011ms returns 0
T2F6C 001:149.676 JLINK_WriteReg(PSP, 0x20001000)
T2F6C 001:149.687 - 0.011ms returns 0
T2F6C 001:149.702 JLINK_WriteReg(CFBP, 0x00000000)
T2F6C 001:149.714 - 0.011ms returns 0
T2F6C 001:149.730 JLINK_SetBPEx(Addr = 0x20000000, Type = 0xFFFFFFF2)
T2F6C 001:149.743 - 0.013ms returns 0x0000000B
T2F6C 001:149.758 JLINK_Go()
T2F6C 001:149.780   CPU_ReadMem(4 bytes @ 0xE0001000)
T2F6C 001:154.036 - 4.277ms 
T2F6C 001:154.064 JLINK_IsHalted()
T2F6C 001:154.795 - 0.730ms returns FALSE
T2F6C 001:154.815 JLINK_HasError()
T2F6C 001:156.441 JLINK_IsHalted()
T2F6C 001:157.297 - 0.855ms returns FALSE
T2F6C 001:157.318 JLINK_HasError()
T2F6C 001:158.960 JLINK_IsHalted()
T2F6C 001:162.574   CPU_ReadMem(2 bytes @ 0x20000000)
T2F6C 001:163.454 - 4.493ms returns TRUE
T2F6C 001:163.493 JLINK_ReadReg(R15 (PC))
T2F6C 001:163.507 - 0.014ms returns 0x20000000
T2F6C 001:163.523 JLINK_ClrBPEx(BPHandle = 0x0000000B)
T2F6C 001:163.535 - 0.012ms returns 0x00
T2F6C 001:163.550 JLINK_ReadReg(R0)
T2F6C 001:163.562 - 0.011ms returns 0x00000000
T2F6C 001:164.723 JLINK_WriteMem(0x20000184, 0x27C Bytes, ...)
T2F6C 001:164.748   Data:  0B 90 00 20 07 90 01 21 08 91 01 90 02 90 03 90 ...
T2F6C 001:164.775   CPU_WriteMem(636 bytes @ 0x20000184)
T2F6C 001:168.657 - 3.934ms returns 0x27C
T2F6C 001:168.701 JLINK_WriteMem(0x20000400, 0x184 Bytes, ...)
T2F6C 001:168.718   Data:  89 F8 03 9A 11 98 90 ED 08 0A 80 ED 48 0A 11 98 ...
T2F6C 001:168.744   CPU_WriteMem(388 bytes @ 0x20000400)
T2F6C 001:171.528 - 2.826ms returns 0x184
T2F6C 001:171.559 JLINK_HasError()
T2F6C 001:171.586 JLINK_WriteReg(R0, 0x08000C00)
T2F6C 001:171.602 - 0.016ms returns 0
T2F6C 001:171.627 JLINK_WriteReg(R1, 0x00000400)
T2F6C 001:171.643 - 0.015ms returns 0
T2F6C 001:171.667 JLINK_WriteReg(R2, 0x20000184)
T2F6C 001:171.683 - 0.015ms returns 0
T2F6C 001:171.707 JLINK_WriteReg(R3, 0x00000000)
T2F6C 001:171.722 - 0.015ms returns 0
T2F6C 001:171.747 JLINK_WriteReg(R4, 0x00000000)
T2F6C 001:171.763 - 0.016ms returns 0
T2F6C 001:171.787 JLINK_WriteReg(R5, 0x00000000)
T2F6C 001:171.803 - 0.015ms returns 0
T2F6C 001:171.827 JLINK_WriteReg(R6, 0x00000000)
T2F6C 001:171.843 - 0.015ms returns 0
T2F6C 001:171.867 JLINK_WriteReg(R7, 0x00000000)
T2F6C 001:171.883 - 0.015ms returns 0
T2F6C 001:171.908 JLINK_WriteReg(R8, 0x00000000)
T2F6C 001:171.923 - 0.015ms returns 0
T2F6C 001:171.947 JLINK_WriteReg(R9, 0x20000180)
T2F6C 001:171.963 - 0.015ms returns 0
T2F6C 001:172.053 JLINK_WriteReg(R10, 0x00000000)
T2F6C 001:172.070 - 0.017ms returns 0
T2F6C 001:172.086 JLINK_WriteReg(R11, 0x00000000)
T2F6C 001:172.098 - 0.012ms returns 0
T2F6C 001:172.113 JLINK_WriteReg(R12, 0x00000000)
T2F6C 001:172.124 - 0.011ms returns 0
T2F6C 001:172.140 JLINK_WriteReg(R13 (SP), 0x20001000)
T2F6C 001:172.152 - 0.012ms returns 0
T2F6C 001:172.167 JLINK_WriteReg(R14, 0x20000001)
T2F6C 001:172.179 - 0.012ms returns 0
T2F6C 001:172.194 JLINK_WriteReg(R15 (PC), 0x2000010C)
T2F6C 001:172.206 - 0.012ms returns 0
T2F6C 001:172.221 JLINK_WriteReg(XPSR, 0x01000000)
T2F6C 001:172.233 - 0.012ms returns 0
T2F6C 001:172.248 JLINK_WriteReg(MSP, 0x20001000)
T2F6C 001:172.261 - 0.012ms returns 0
T2F6C 001:172.276 JLINK_WriteReg(PSP, 0x20001000)
T2F6C 001:172.287 - 0.011ms returns 0
T2F6C 001:172.302 JLINK_WriteReg(CFBP, 0x00000000)
T2F6C 001:172.314 - 0.012ms returns 0
T2F6C 001:172.330 JLINK_SetBPEx(Addr = 0x20000000, Type = 0xFFFFFFF2)
T2F6C 001:172.344 - 0.014ms returns 0x0000000C
T2F6C 001:172.359 JLINK_Go()
T2F6C 001:172.381   CPU_ReadMem(4 bytes @ 0xE0001000)
T2F6C 001:176.525 - 4.166ms 
T2F6C 001:176.549 JLINK_IsHalted()
T2F6C 001:177.315 - 0.765ms returns FALSE
T2F6C 001:177.349 JLINK_HasError()
T2F6C 001:184.639 JLINK_IsHalted()
T2F6C 001:188.389   CPU_ReadMem(2 bytes @ 0x20000000)
T2F6C 001:189.189 - 4.549ms returns TRUE
T2F6C 001:189.225 JLINK_ReadReg(R15 (PC))
T2F6C 001:189.249 - 0.023ms returns 0x20000000
T2F6C 001:189.271 JLINK_ClrBPEx(BPHandle = 0x0000000C)
T2F6C 001:189.288 - 0.016ms returns 0x00
T2F6C 001:189.308 JLINK_ReadReg(R0)
T2F6C 001:189.324 - 0.015ms returns 0x00000000
T2F6C 001:190.478 JLINK_WriteMem(0x20000184, 0x27C Bytes, ...)
T2F6C 001:190.507   Data:  48 00 0F 99 49 00 02 F1 50 03 8A B2 03 21 0A F0 ...
T2F6C 001:190.541   CPU_WriteMem(636 bytes @ 0x20000184)
T2F6C 001:194.480 - 4.002ms returns 0x27C
T2F6C 001:194.515 JLINK_WriteMem(0x20000400, 0x184 Bytes, ...)
T2F6C 001:194.532   Data:  99 FA 09 99 01 F1 B0 00 D1 ED 87 0A 91 ED 8F 0A ...
T2F6C 001:194.562   CPU_WriteMem(388 bytes @ 0x20000400)
T2F6C 001:197.493 - 2.977ms returns 0x184
T2F6C 001:197.560 JLINK_HasError()
T2F6C 001:197.591 JLINK_WriteReg(R0, 0x08001000)
T2F6C 001:197.618 - 0.026ms returns 0
T2F6C 001:197.649 JLINK_WriteReg(R1, 0x00000400)
T2F6C 001:197.667 - 0.017ms returns 0
T2F6C 001:197.693 JLINK_WriteReg(R2, 0x20000184)
T2F6C 001:197.720 - 0.025ms returns 0
T2F6C 001:197.750 JLINK_WriteReg(R3, 0x00000000)
T2F6C 001:197.767 - 0.017ms returns 0
T2F6C 001:197.807 JLINK_WriteReg(R4, 0x00000000)
T2F6C 001:197.825 - 0.018ms returns 0
T2F6C 001:197.857 JLINK_WriteReg(R5, 0x00000000)
T2F6C 001:197.882 - 0.025ms returns 0
T2F6C 001:197.911 JLINK_WriteReg(R6, 0x00000000)
T2F6C 001:197.928 - 0.017ms returns 0
T2F6C 001:197.956 JLINK_WriteReg(R7, 0x00000000)
T2F6C 001:197.972 - 0.017ms returns 0
T2F6C 001:198.008 JLINK_WriteReg(R8, 0x00000000)
T2F6C 001:198.043 - 0.035ms returns 0
T2F6C 001:198.082 JLINK_WriteReg(R9, 0x20000180)
T2F6C 001:198.107 - 0.025ms returns 0
T2F6C 001:198.133 JLINK_WriteReg(R10, 0x00000000)
T2F6C 001:198.150 - 0.017ms returns 0
T2F6C 001:198.176 JLINK_WriteReg(R11, 0x00000000)
T2F6C 001:198.193 - 0.016ms returns 0
T2F6C 001:198.232 JLINK_WriteReg(R12, 0x00000000)
